! TOUCHSTONE file generated by CST MICROWAVE STUDIO
! Date and time: Thu May 27 09:58:08 2021
! Project name: waveguide_with_ports.cst
! Parameters = {ln=0.4; res=0.01}
! Header version: 2015
! Port assignment regex: !\s*Touchstone port\s*([0-9]+)\s*=\s*CST MWS port\s*([0-9]+)\s*\(\"(.*)\"\)(\s*mode\s*([0-9]+))?.*
! Touchstone port assignment:
! Touchstone port 1 = CST MWS port 1 ("")
! Touchstone port 2 = CST MWS port 2 ("")
! S-Parameters are not renormalized. Unphysical impedance of 0 will be written to the file.
# GHz S MA R 0
0.1                  2.21489e-07        -70.5538       0.00586322         18.1237                0               0                0               0
0.1014               3.05703e-07         -63.924       0.00589266        -15.0486                0               0                0               0
0.1028               3.88105e-07        -73.7594       0.00494719        -49.5202                0               0                0               0
0.1042               4.25687e-07        -89.7393       0.00330079        -91.2931                0               0                0               0
0.1056               4.05556e-07        -107.882       0.00188904        -164.738                0               0                0               0
0.107                3.29115e-07        -126.071       0.00274994         106.994                0               0                0               0
0.1084               2.08432e-07        -140.857       0.00445577         59.9437                0               0                0               0
0.1098               7.61337e-08        -126.474       0.00561597         24.5278                0               0                0               0
0.1112               1.31016e-07         -48.683       0.00584881        -8.19457                0               0                0               0
0.1126               2.72614e-07        -55.6968       0.00509191        -41.4897                0               0                0               0
0.114                3.89443e-07        -73.3504       0.00354484        -79.9626                0               0                0               0
0.1154               4.63695e-07        -93.0308       0.00188846        -143.322                0               0                0               0
0.1168               4.88283e-07        -113.015       0.00228072         118.192                0               0                0               0
0.1182               4.64088e-07        -132.429       0.00401699         66.6256                0               0                0               0
0.1196               3.99265e-07        -150.274         0.005332          30.779                0               0                0               0
0.121                3.08548e-07        -164.643       0.00576499        -1.55867                0               0                0               0
0.1224               2.14253e-07        -170.922       0.00520512        -33.8491                0               0                0               0
0.1238               1.53098e-07        -160.586       0.00378915        -69.6945                0               0                0               0
0.1252               1.60705e-07        -143.704       0.00200997        -123.374                0               0                0               0
0.1266               2.03509e-07        -143.641       0.00183529         131.847                0               0                0               0
0.128                2.37618e-07         -155.14       0.00355812         73.3356                0               0                0               0
0.1294               2.48294e-07        -171.768        0.0050147         36.8638                0               0                0               0
0.1308               2.34111e-07         168.772       0.00564258         4.85708                0               0                0               0
0.1322                1.9927e-07         146.722       0.00528496         -26.564                0               0                0               0
0.1336               1.51012e-07         120.353       0.00402381        -60.3102                0               0                0               0
0.135                1.00732e-07         83.1067        0.0022218        -106.093                0               0                0               0
0.1364               7.55837e-08          20.672       0.00144227         149.815                0               0                0               0
0.1378                1.0526e-07        -40.7627       0.00308367         80.1269                0               0                0               0
0.1392               1.60273e-07        -78.7197        0.0046675         42.7645                0               0                0               0
0.1406               2.17125e-07        -107.832       0.00548326         11.0468                0               0                0               0
0.142                  2.676e-07        -134.546       0.00533027        -19.6089                0               0                0               0
0.1434               3.07628e-07        -161.078        0.0042414        -51.6614                0               0                0               0
0.1448               3.35321e-07         171.674       0.00248823        -91.5323                0               0                0               0
0.1462               3.50864e-07         143.365       0.00115592         174.711                0               0                0               0
0.1476               3.56112e-07         114.052       0.00259809         87.0969                0               0                0               0
0.149                3.53368e-07          84.198       0.00429391          48.457                0               0                0               0
0.1504               3.43679e-07         54.6749       0.00528898         17.0012                0               0                0               0
0.1518               3.25904e-07         26.6922       0.00534052         -12.965                0               0                0               0
0.1532               2.97861e-07         1.80392       0.00443646        -43.6296                0               0                0               0
0.1546               2.60155e-07        -17.7041        0.0027808        -79.2115                0               0                0               0
0.156                2.23161e-07        -28.2721        0.0010574        -153.664                0               0                0               0
0.1574               2.14089e-07        -28.4519       0.00210582         94.4336                0               0                0               0
0.1588               2.57001e-07        -28.3662       0.00389743         53.9058                0               0                0               0
0.1602               3.36622e-07        -37.2067       0.00506198         22.7046                0               0                0               0
0.1616               4.21517e-07         -52.997       0.00531574        -6.62081                0               0                0               0
0.163                4.86554e-07        -72.3903       0.00460511        -36.1246                0               0                0               0
0.1644                5.1345e-07        -93.4915       0.00307992        -68.5935                0               0                0               0
0.1658               4.90162e-07         -115.23       0.00118049        -123.411                0               0                0               0
0.1672               4.11613e-07        -136.686       0.00161155         102.561                0               0                0               0
0.1686               2.80824e-07        -155.946       0.00348154         59.0568                0               0                0               0
0.17                 1.14515e-07        -159.974       0.00480464          28.135                0               0                0               0
0.1714               1.23761e-07        -64.7388       0.00525638       -0.570609                0               0                0               0
0.1728               3.26541e-07        -69.7337       0.00474459        -29.0784                0               0                0               0
0.1742               5.22811e-07        -89.2009       0.00337255        -59.2497                0               0                0               0
0.1756               6.84661e-07        -110.941       0.00145543        -100.833                0               0                0               0
0.177                7.93966e-07        -133.253       0.00112156         112.627                0               0                0               0
0.1784               8.39515e-07        -155.549       0.00304978         63.8258                0               0                0               0
0.1798               8.18095e-07        -177.435       0.00451959         33.2604                0               0                0               0
0.1812               7.34952e-07         161.566       0.00516331         5.18474                0               0                0               0
0.1826               6.03451e-07           142.3       0.00485308        -22.4411                0               0                0               0
0.184                4.44599e-07         126.703       0.00365007        -50.8715                0               0                0               0
0.1854               2.89582e-07         120.125       0.00179973        -84.7364                0               0                0               0
0.1868               1.95108e-07         134.345      0.000650182         129.035                0               0                0               0
0.1882                 2.172e-07         154.732       0.00260583         68.0661                0               0                0               0
0.1896               2.84986e-07         153.672       0.00420964         38.0355                0               0                0               0
0.191                3.31629e-07          141.61       0.00503777         10.6383                0               0                0               0
0.1924                 3.405e-07         125.885       0.00492954        -16.1767                0               0                0               0
0.1938               3.13323e-07         109.321        0.0039067        -43.2446                0               0                0               0
0.1952               2.59506e-07          93.407       0.00216707         -72.583                0               0                0               0
0.1966                1.9145e-07         79.3938        0.0002911        -179.851                0               0                0               0
0.198                1.20759e-07         69.0056       0.00215375         71.5079                0               0                0               0
0.1994               5.53227e-08         68.1427        0.0038779         42.3927                0               0                0               0
0.2008               2.16234e-08         158.281       0.00488132         15.7742                0               0                0               0
0.2022               7.67832e-08        -166.658       0.00497349        -10.2616                0               0                0               0
0.2036               1.44359e-07        -172.298       0.00413857        -36.2209                0               0                0               0
0.205                2.16753e-07         175.639       0.00253498        -62.7677                0               0                0               0
0.2064               2.86393e-07         160.222      0.000475296        -100.363                0               0                0               0
0.2078               3.42451e-07           142.7        0.0016987         73.5932                0               0                0               0
0.2092               3.73908e-07         123.973       0.00352779         46.2331                0               0                0               0
0.2106               3.72539e-07         104.902       0.00469586         20.5687                0               0                0               0
0.212                 3.3538e-07         86.6694       0.00498498        -4.68162                0               0                0               0
0.2134               2.67173e-07         71.7174       0.00434302        -29.6987                0               0                0               0
0.2148               1.86268e-07         66.9015        0.0028919        -54.4163                0               0                0               0
0.2162               1.46065e-07         85.0667      0.000904792        -77.4731                0               0                0               0
0.2176               2.00075e-07         99.8213        0.0012492         72.9799                0               0                0               0
0.219                2.90026e-07         90.9508       0.00316341         49.4069                0               0                0               0
0.2204               3.66392e-07         71.4699       0.00448362         24.9857                0               0                0               0
0.2218               4.09828e-07         46.9568       0.00496453        0.568117                0               0                0               0
0.2232               4.13752e-07         18.7583       0.00451839        -23.6077                0               0                0               0
0.2246               3.81459e-07        -13.5905       0.00323135        -47.0472                0               0                0               0
0.226                3.27498e-07        -52.0879       0.00135183         -66.373                0               0                0               0
0.2274               2.81022e-07        -99.5965      0.000826249         65.7012                0               0                0               0
0.2288               2.78884e-07        -153.721        0.0027898         51.6778                0               0                0               0
0.2302                3.2664e-07         156.354       0.00424725         28.9727                0               0                0               0
0.2316               3.91637e-07         114.611       0.00491302         5.48367                0               0                0               0
0.233                4.43275e-07         78.1955       0.00466367        -17.9012                0               0                0               0
0.2344               4.64877e-07         44.4374       0.00354936        -40.3839                0               0                0               0
0.2358               4.50273e-07         11.7552       0.00179176        -58.4342                0               0                0               0
0.2372               4.00878e-07        -20.9049      0.000511779         38.6607                0               0                0               0
0.2386                3.2371e-07        -54.5957       0.00241389         52.6646                0               0                0               0
0.24                 2.29787e-07        -91.1862       0.00398985         32.4576                0               0                0               0
0.2414               1.34138e-07        -136.559       0.00483172         10.0521                0               0                0               0
0.2428               7.07321e-08          143.54       0.00477837        -12.5485                0               0                0               0
0.2442                1.0221e-07         51.4124       0.00384333         -34.261                0               0                0               0
0.2456               1.63456e-07       -0.585834       0.00221827        -51.8174                0               0                0               0
0.247                2.15145e-07        -42.3068      0.000547022        -9.73137                0               0                0               0
0.2484               2.53399e-07        -81.5147        0.0020462         51.7353                0               0                0               0
0.2498               2.79607e-07        -119.821       0.00371526         35.3383                0               0                0               0
0.2512               2.95105e-07        -157.406       0.00472229          14.251                0               0                0               0
0.2526               2.99572e-07         165.918       0.00486246        -7.53238                0               0                0               0
0.254                2.91271e-07         130.314       0.00411153        -28.5748                0               0                0               0
0.2554               2.68379e-07         95.7955       0.00262833        -45.9165                0               0                0               0
0.2568               2.30425e-07         62.2251       0.00088743        -32.1418                0               0                0               0
0.2582               1.79138e-07         29.3558       0.00170441         47.8494                0               0                0               0
0.2596               1.18517e-07        -3.23675       0.00342829          37.473                0               0                0               0
0.261                5.42483e-08        -37.0011       0.00458683         18.0471                0               0                0               0
0.2624               8.62048e-09         143.276       0.00491634        -2.84545                0               0                0               0
0.2638               6.11604e-08         88.5928       0.00435284        -23.2617                0               0                0               0
0.2652               1.01737e-07         56.0791       0.00301997        -40.4797                0               0                0               0
0.2666               1.27304e-07         24.6298       0.00130858         -38.233                0               0                0               0
0.268                1.37714e-07         -6.3366       0.00141998         39.5004                0               0                0               0
0.2694               1.34671e-07        -36.5298       0.00313528         38.6642                0               0                0               0
0.2708               1.21148e-07        -64.9457       0.00442799          21.394                0               0                0               0
0.2722               1.01162e-07        -89.2695       0.00494076          1.5097                0               0                0               0
0.2736               8.12111e-08        -104.772        0.0045666        -18.2801                0               0                0               0
0.275                7.40548e-08        -107.452       0.00339173        -35.3851                0               0                0               0
0.2764                9.1682e-08        -109.675       0.00174726        -38.9388                0               0                0               0
0.2778               1.27223e-07        -123.388        0.0012448         25.5959                0               0                0               0
0.2792                1.6796e-07        -144.659       0.00284483         38.6425                0               0                0               0
0.2806               2.04619e-07        -169.169         0.004249         24.2292                0               0                0               0
0.282                2.29965e-07         165.116       0.00493687         5.52257                0               0                0               0
